T15FC 3672:397 SEGGER J-Link V6.41a (beta) Log File (0000ms, 40037ms total)
T15FC 3672:397 DLL Compiled: Nov 27 2018 14:09:51 (0000ms, 40037ms total)
T15FC 3672:397 Logging started @ 2019-04-11 10:18 (0000ms, 40037ms total)
T15FC 3672:397 JLINK_SetWarnOutHandler(...) (0000ms, 40037ms total)
T15FC 3672:397 JLINK_OpenEx(...)
Firmware: J-Link OB-SAM3U128-V2-NordicSemi compiled Jan  7 2019 14:07:15
Hardware: V1.00
S/N: 683306284
TELNET listener socket opened on port 19021WEBSRV 
Starting webserver (0020ms, 40057ms total)
T15FC 3672:397 WEBSRV Webserver running on local port 19081 (0020ms, 40057ms total)
T15FC 3672:397   returns O.K. (0020ms, 40057ms total)
T15FC 3672:418 JLINK_GetEmuCaps()  returns 0xB8EA5A33 (0000ms, 40057ms total)
T15FC 3672:418 JLINK_TIF_GetAvailable(...) (0003ms, 40060ms total)
T15FC 3672:421 JLINK_SetErrorOutHandler(...) (0000ms, 40060ms total)
T15FC 3672:421 JLINK_ExecCommand("ProjectFile = "D:\Nordic\nRF5_SDK_15.2.0_9412b96-bk\nRF5_SDK_15.2.0_9412b96\examples\proprietary_rf\gzll\gzll_ack_payload\host\pca10056\blank\arm5_no_packs\JLinkSettings.ini"", ...).   returns 0x00 (0000ms, 40060ms total)
T15FC 3672:421 JLINK_ExecCommand("Device = nRF52840_xxAA", ...). Device "NRF52840_XXAA" selected.  returns 0x00 (0001ms, 40061ms total)
T15FC 3672:422 JLINK_ExecCommand("DisableConnectionTimeout", ...).   returns 0x01 (0000ms, 40061ms total)
T15FC 3672:422 JLINK_GetHardwareVersion()  returns 0x2710 (0000ms, 40061ms total)
T15FC 3672:422 JLINK_GetDLLVersion()  returns 64101 (0000ms, 40061ms total)
T15FC 3672:422 JLINK_GetFirmwareString(...) (0000ms, 40061ms total)
T15FC 3672:422 JLINK_GetDLLVersion()  returns 64101 (0000ms, 40061ms total)
T15FC 3672:422 JLINK_GetCompileDateTime() (0000ms, 40061ms total)
T15FC 3672:422 JLINK_GetFirmwareString(...) (0000ms, 40061ms total)
T15FC 3672:422 JLINK_GetHardwareVersion()  returns 0x2710 (0000ms, 40061ms total)
T15FC 3672:422 JLINK_TIF_Select(JLINKARM_TIF_SWD)  returns 0x00 (0006ms, 40067ms total)
T15FC 3672:428 JLINK_SetSpeed(5000) (0001ms, 40068ms total)
T15FC 3672:429 JLINK_GetId() >0x10B TIF>Found SW-DP with ID 0x2BA01477 >0x0D TIF> >0x28 TIF> >0x0D TIF> >0x28 TIF> >0x10B TIF>Found SW-DP with ID 0x2BA01477 >0x0D TIF> >0x28 TIF> >0x0D TIF> >0x28 TIF> >0x0D TIF> >0x28 TIF> >0x0D TIF> >0x28 TIF> >0x35 TIF> >0x0D TIF> >0x28 TIF>Scanning AP map to find all available APs >0x0D TIF> >0x28 TIF> >0x35 TIF> >0x35 TIF> >0x0D TIF> >0x28 TIF> >0x35 TIF> >0x35 TIF> >0x0D TIF> >0x28 TIF> >0x35 TIF> >0x35 TIF>AP[2]: Stopped AP scan as end of AP map has been reached
AP[0]: AHB-AP (IDR: 0x24770011)AP[1]: JTAG-AP (IDR: 0x02880000)Iterating through AP map to find AHB-AP to use >0x42 TIF> >0x28 TIF> >0x0D TIF> >0x28 TIF> >0x35 TIF> >0x35 TIF> >0x42 TIF> >0x28 TIF> >0x0D TIF> >0x28 TIF> >0x0D TIF> >0x28 TIF> >0x35 TIF> >0x35 TIF>AP[0]: Core foundAP[0]: AHB-AP ROM base: 0xE00FF000 >0x0D TIF> >0x28 TIF> >0x0D TIF> >0x28 TIF> >0x0D TIF> >0x28 TIF> >0x35 TIF> >0x35 TIF>CPUID register: 0x410FC241. Implementer code: 0x41 (ARM)Found Cortex-M4 r0p1, Little endian.
 -- Max. mem block: 0x00001D68 -- CPU_ReadMem(4 bytes @ 0xE000EDF0) -- CPU_WriteMem(4 bytes @ 0xE000EDF0) -- CPU_ReadMem(4 bytes @ 0xE0002000)FPUnit: 6 code (BP) slots and 2 literal slots -- CPU_ReadMem(4 bytes @ 0xE000EDFC) -- CPU_WriteMem(4 bytes @ 0xE000EDFC) -- CPU_ReadMem(4 bytes @ 0xE0001000) -- CPU_WriteMem(4 bytes @ 0xE0001000) -- CPU_ReadMem(4 bytes @ 0xE000ED88) -- CPU_WriteMem(4 bytes @ 0xE000ED88) -- CPU_ReadMem(4 bytes @ 0xE000ED88) -- CPU_WriteMem(4 bytes @ 0xE000ED88)CoreSight components:
ROMTbl[0] @ E00FF000 -- CPU_ReadMem(16 bytes @ 0xE00FF000) -- CPU_ReadMem(16 bytes @ 0xE000EFF0) -- CPU_ReadMem(16 bytes @ 0xE000EFE0)ROMTbl[0][0]: E000E000, CID: B105E00D, PID: 000BB00C SCS-M7 -- CPU_ReadMem(16 bytes @ 0xE0001FF0) -- CPU_ReadMem(16 bytes @ 0xE0001FE0)ROMTbl[0][1]: E0001000, CID: B105E00D, PID: 003BB002 DWT -- CPU_ReadMem(16 bytes @ 0xE0002FF0) -- CPU_ReadMem(16 bytes @ 0xE0002FE0)ROMTbl[0][2]: E0002000, CID: B105E00D, PID: 002BB003 FPB -- CPU_ReadMem(16 bytes @ 0xE0000FF0)
 -- CPU_ReadMem(16 bytes @ 0xE0000FE0)ROMTbl[0][3]: E0000000, CID: B105E00D, PID: 003BB001 ITM -- CPU_ReadMem(16 bytes @ 0xE00FF010) -- CPU_ReadMem(16 bytes @ 0xE0040FF0) -- CPU_ReadMem(16 bytes @ 0xE0040FE0)ROMTbl[0][4]: E0040000, CID: B105900D, PID: 000BB9A1 TPIU -- CPU_ReadMem(16 bytes @ 0xE0041FF0) -- CPU_ReadMem(16 bytes @ 0xE0041FE0)ROMTbl[0][5]: E0041000, CID: B105900D, PID: 000BB925 ETM >0x35 TIF>  returns 0x2BA01477 (0195ms, 40263ms total)
T15FC 3672:624 JLINK_GetDLLVersion()  returns 64101 (0000ms, 40263ms total)
T15FC 3672:624 JLINK_CORE_GetFound()  returns 0xE0000FF (0000ms, 40263ms total)
T15FC 3672:624 JLINK_GetDebugInfo(0x100 = JLINKARM_ROM_TABLE_ADDR_INDEX) -- Value=0xE00FF000  returns 0x00 (0000ms, 40263ms total)
T15FC 3672:624 JLINK_GetDebugInfo(0x100 = JLINKARM_ROM_TABLE_ADDR_INDEX) -- Value=0xE00FF000  returns 0x00 (0000ms, 40263ms total)
T15FC 3672:624 JLINK_GetDebugInfo(0x101 = JLINKARM_DEBUG_INFO_ETM_ADDR_INDEX) -- Value=0xE0041000  returns 0x00 (0000ms, 40263ms total)
T15FC 3672:624 JLINK_ReadMemEx(0xE0041FD0, 0x0020 Bytes, ..., Flags = 0x02000004) -- CPU_ReadMem(32 bytes @ 0xE0041FD0) - Data: 04 00 00 00 00 00 00 00 00 00 00 00 00 00 00 00 ...  returns 0x20 (0004ms, 40267ms total)
T15FC 3672:628 JLINK_GetDebugInfo(0x102 = JLINKARM_DEBUG_INFO_MTB_ADDR_INDEX) -- Value=0x00000000  returns 0x00 (0000ms, 40267ms total)
T15FC 3672:628 JLINK_GetDebugInfo(0x103 = JLINKARM_DEBUG_INFO_TPIU_ADDR_INDEX) -- Value=0xE0040000  returns 0x00 (0000ms, 40267ms total)
T15FC 3672:628 JLINK_GetDebugInfo(0x104 = JLINKARM_DEBUG_INFO_ITM_ADDR_INDEX) -- Value=0xE0000000  returns 0x00 (0000ms, 40267ms total)
T15FC 3672:628 JLINK_GetDebugInfo(0x105 = JLINKARM_DEBUG_INFO_DWT_ADDR_INDEX) -- Value=0xE0001000  returns 0x00 (0000ms, 40267ms total)
T15FC 3672:628 JLINK_GetDebugInfo(0x106 = JLINKARM_DEBUG_INFO_FPB_ADDR_INDEX) -- Value=0xE0002000  returns 0x00 (0000ms, 40267ms total)
T15FC 3672:628 JLINK_GetDebugInfo(0x107 = JLINKARM_DEBUG_INFO_NVIC_ADDR_INDEX) -- Value=0xE000E000  returns 0x00 (0000ms, 40267ms total)
T15FC 3672:628 JLINK_GetDebugInfo(0x10C = JLINKARM_DEBUG_INFO_DBG_ADDR_INDEX) -- Value=0xE000EDF0  returns 0x00 (0000ms, 40267ms total)
T15FC 3672:628 JLINK_GetDebugInfo(0x01 = Unknown) -- Value=0x00000001  returns 0x00 (0000ms, 40267ms total)
T15FC 3672:628 JLINK_ReadMemU32(0xE000ED00, 0x0001 Items, ...) -- CPU_ReadMem(4 bytes @ 0xE000ED00) - Data: 41 C2 0F 41  returns 1 (0003ms, 40270ms total)
T15FC 3672:631 JLINK_GetDebugInfo(0x10F = JLINKARM_DEBUG_INFO_HAS_CORTEX_M_SECURITY_EXT_INDEX) -- Value=0x00000000  returns 0x00 (0000ms, 40270ms total)
T15FC 3672:631 JLINK_SetResetType(JLINKARM_CM3_RESET_TYPE_NORMAL)  returns JLINKARM_CM3_RESET_TYPE_NORMAL (0000ms, 40270ms total)
T15FC 3672:631 JLINK_Reset() -- CPU is running -- CPU_WriteMem(4 bytes @ 0xE000EDF0) -- CPU is running -- CPU_WriteMem(4 bytes @ 0xE000EDFC)Reset: Halt core after reset via DEMCR.VC_CORERESET. >0x35 TIF>Reset: Reset device via AIRCR.SYSRESETREQ. -- CPU is running -- CPU_WriteMem(4 bytes @ 0xE000ED0C) >0x0D TIF> >0x28 TIF> -- CPU_ReadMem(4 bytes @ 0xE000EDF0) -- CPU_ReadMem(4 bytes @ 0xE000EDF0) -- CPU is running -- CPU_WriteMem(4 bytes @ 0xE000EDF0) -- CPU is running -- CPU_WriteMem(4 bytes @ 0xE000EDFC)
 -- CPU_ReadMem(4 bytes @ 0xE000EDF0) -- CPU_WriteMem(4 bytes @ 0xE0002000) -- CPU_ReadMem(4 bytes @ 0xE000EDFC) -- CPU_ReadMem(4 bytes @ 0xE0001000) -- CPU_ReadMem(4 bytes @ 0xE0001004) (0100ms, 40370ms total)
T15FC 3672:731 JLINK_ReadReg(R15 (PC))  returns 0x000002F8 (0000ms, 40370ms total)
T15FC 3672:731 JLINK_ReadReg(XPSR)  returns 0x01000000 (0000ms, 40370ms total)
T15FC 3672:731 JLINK_Halt()  returns 0x00 (0000ms, 40370ms total)
T15FC 3672:731 JLINK_ReadMemU32(0xE000EDF0, 0x0001 Items, ...) -- CPU_ReadMem(4 bytes @ 0xE000EDF0) - Data: 03 00 03 00  returns 1 (0056ms, 40426ms total)
T15FC 3672:787 JLINK_WriteU32(0xE000EDF0, 0xA05F0003) -- CPU_WriteMem(4 bytes @ 0xE000EDF0)  returns 0 (0002ms, 40428ms total)
T15FC 3672:789 JLINK_WriteU32(0xE000EDFC, 0x01000000) -- CPU_WriteMem(4 bytes @ 0xE000EDFC)  returns 0 (0002ms, 40430ms total)
T15FC 3672:791 JLINK_GetHWStatus(...)  returns 0x00 (0002ms, 40432ms total)
T15FC 3672:793 JLINK_GetNumBPUnits(Type = 0xFFFFFF00)  returns 0x06 (0000ms, 40432ms total)
T15FC 3672:793 JLINK_GetNumBPUnits(Type = 0xF0)  returns 0x2000 (0000ms, 40432ms total)
T15FC 3672:793 JLINK_GetNumWPUnits()  returns 0x04 (0000ms, 40432ms total)
T15FC 3672:793 JLINK_GetSpeed()  returns 0x3E8 (0000ms, 40432ms total)
T15FC 3672:793 JLINK_ReadMemU32(0xE000E004, 0x0001 Items, ...) -- CPU_ReadMem(4 bytes @ 0xE000E004) - Data: 01 00 00 00  returns 1 (0002ms, 40434ms total)
T15FC 3672:795 JLINK_ReadMemU32(0xE000E004, 0x0001 Items, ...) -- CPU_ReadMem(4 bytes @ 0xE000E004) - Data: 01 00 00 00  returns 1 (0003ms, 40437ms total)
T15FC 3672:798 JLINK_WriteMemEx(0xE0001000, 0x001C Bytes, ..., Flags = 0x02000004) - Data: 01 00 00 00 00 00 00 00 00 00 00 00 00 00 00 00 ... -- CPU_WriteMem(28 bytes @ 0xE0001000)  returns 0x1C (0003ms, 40440ms total)
T15FC 3672:801 JLINK_ReadReg(R15 (PC))  returns 0x000002F8 (0000ms, 40440ms total)
T15FC 3672:801 JLINK_ReadReg(XPSR)  returns 0x01000000 (0000ms, 40440ms total)
T15FC 3672:801 JLINK_WriteU32(0xE0041FB0, 0xC5ACCE55) -- CPU_WriteMem(4 bytes @ 0xE0041FB0)  returns 0 (0003ms, 40443ms total)
T15FC 3672:804 JLINK_ReadMemU32(0xE0041000, 0x0001 Items, ...) -- CPU_ReadMem(4 bytes @ 0xE0041000) - Data: 11 04 00 00  returns 1 (0002ms, 40445ms total)
T15FC 3672:806 JLINK_WriteU32(0xE0041000, 0x00000410) -- CPU_WriteMem(4 bytes @ 0xE0041000)  returns 0 (0002ms, 40447ms total)
T15FC 3672:811 JLINK_SWO_Control(JLINKARM_SWO_CMD_GET_SPEED_INFO, ...)  returns 0x00 (0002ms, 40449ms total)
T15FC 3672:813 JLINK_SWO_Control(JLINKARM_SWO_CMD_STOP, ...)  returns 0x00 (0001ms, 40450ms total)
T15FC 3672:814 JLINK_SWO_Control(JLINKARM_SWO_CMD_START, ...)  returns 0x00 (0004ms, 40454ms total)
T15FC 3672:818 JLINK_WriteU32(0xE0040004, 0x00000001) -- CPU_WriteMem(4 bytes @ 0xE0040004)  returns 0 (0002ms, 40456ms total)
T15FC 3672:820 JLINK_WriteU32(0xE0040010, 0x00000004)  returns 0 (0000ms, 40456ms total)
T15FC 3672:820 JLINK_WriteU32(0xE00400F0, 0x00000002)  returns 0 (0000ms, 40456ms total)
T15FC 3672:820 JLINK_WriteU32(0xE0040304, 0x00000000)  returns 0 (0000ms, 40456ms total)
T15FC 3672:820 JLINK_WriteU32(0xE0000FB0, 0xC5ACCE55) -- CPU_WriteMem(4 bytes @ 0xE0000FB0)  returns 0 (0002ms, 40458ms total)
T15FC 3672:822 JLINK_WriteU32(0xE0000E80, 0x0001000D)  returns 0 (0000ms, 40458ms total)
T15FC 3672:822 JLINK_WriteU32(0xE0000E00, 0xFFFFFFFF)  returns 0 (0000ms, 40458ms total)
T15FC 3672:822 JLINK_WriteU32(0xE0000E40, 0x00000008)  returns 0 (0000ms, 40458ms total)
T15FC 3672:822 JLINK_WriteU32(0xE0001000, 0x0001061F)  returns 0 (0000ms, 40458ms total)
T15FC 3672:957 JLINK_SetResetType(JLINKARM_CM3_RESET_TYPE_NORMAL)  returns JLINKARM_CM3_RESET_TYPE_NORMAL (0000ms, 40458ms total)
T15FC 3672:957 JLINK_Reset() -- CPU_WriteMem(4 bytes @ 0xE0000E00) -- CPU_WriteMem(4 bytes @ 0xE0000E40) -- CPU_WriteMem(4 bytes @ 0xE0000E80) -- CPU_WriteMem(4 bytes @ 0xE0001000) -- CPU_WriteMem(4 bytes @ 0xE0040010) -- CPU_WriteMem(4 bytes @ 0xE00400F0) -- CPU_WriteMem(4 bytes @ 0xE0040304) -- CPU_WriteMem(4 bytes @ 0xE000EDF0) -- CPU_WriteMem(4 bytes @ 0xE000EDFC)Reset: Halt core after reset via DEMCR.VC_CORERESET. >0x35 TIF>Reset: Reset device via AIRCR.SYSRESETREQ.
 -- CPU_WriteMem(4 bytes @ 0xE000ED0C) >0x0D TIF> >0x28 TIF> -- CPU_ReadMem(4 bytes @ 0xE000EDF0) -- CPU_ReadMem(4 bytes @ 0xE000EDF0) -- CPU_WriteMem(4 bytes @ 0xE000EDF0) -- CPU_WriteMem(4 bytes @ 0xE000EDFC) -- CPU_ReadMem(4 bytes @ 0xE000EDF0) -- CPU_WriteMem(4 bytes @ 0xE0002000) -- CPU_ReadMem(4 bytes @ 0xE000EDFC) -- CPU_ReadMem(4 bytes @ 0xE0001000) -- CPU_ReadMem(4 bytes @ 0xE0001004) (0115ms, 40573ms total)
T15FC 3673:072 JLINK_WriteU32(0xE000EDFC, 0x01000000) -- CPU_WriteMem(4 bytes @ 0xE000EDFC)  returns 0 (0057ms, 40630ms total)
T15FC 3673:129 JLINK_ReadReg(R15 (PC))  returns 0x000002F8 (0000ms, 40630ms total)
T15FC 3673:129 JLINK_ReadReg(XPSR)  returns 0x01000000 (0000ms, 40630ms total)
T15FC 3673:158 JLINK_ReadMemEx(0x000002F8, 0x003C Bytes, ..., Flags = 0x02000000) -- CPU_ReadMem(128 bytes @ 0x000002C0) -- Updating C cache (128 bytes @ 0x000002C0) -- Read from C cache (60 bytes @ 0x000002F8) - Data: 06 48 80 47 06 48 00 47 FE E7 FE E7 FE E7 FE E7 ...  returns 0x3C (0004ms, 40634ms total)
T15FC 3673:234 JLINK_WriteU32(0xE0001008, 0x00000000)  returns 0 (0000ms, 40634ms total)
T15FC 3673:234 JLINK_WriteU32(0xE000100C, 0x00000000)  returns 0 (0000ms, 40634ms total)
T15FC 3673:234 JLINK_WriteU32(0xE0001010, 0x00000000)  returns 0 (0000ms, 40634ms total)
T15FC 3673:234 JLINK_WriteU32(0xE0001014, 0x00000000)  returns 0 (0000ms, 40634ms total)
T15FC 3673:234 JLINK_WriteU32(0xE0001018, 0x00000000)  returns 0 (0000ms, 40634ms total)
T15FC 3673:264 JLINK_ReadMemEx(0x40024100, 0x0004 Bytes, ..., Flags = 0x02000004) -- CPU_ReadMem(4 bytes @ 0x40024100) - Data: 00 00 00 00  returns 0x04 (0001ms, 40635ms total)
T15FC 3673:265 JLINK_ReadMemEx(0x40024100, 0x0004 Bytes, ..., Flags = 0x02000004) -- CPU_ReadMem(4 bytes @ 0x40024100) - Data: 00 00 00 00  returns 0x04 (0001ms, 40636ms total)
T15FC 3673:266 JLINK_ReadMemEx(0x40024104, 0x0004 Bytes, ..., Flags = 0x02000004) -- CPU_ReadMem(4 bytes @ 0x40024104) - Data: 00 00 00 00  returns 0x04 (0001ms, 40637ms total)
T15FC 3673:267 JLINK_ReadMemEx(0x40024104, 0x0004 Bytes, ..., Flags = 0x02000004) -- CPU_ReadMem(4 bytes @ 0x40024104) - Data: 00 00 00 00  returns 0x04 (0002ms, 40639ms total)
T15FC 3673:269 JLINK_ReadMemEx(0x40024140, 0x000C Bytes, ..., Flags = 0x02000004) -- CPU_ReadMem(12 bytes @ 0x40024140) - Data: 00 00 00 00 00 00 00 00 00 00 00 00  returns 0x0C (0001ms, 40640ms total)
T15FC 3673:270 JLINK_ReadMemEx(0x40024140, 0x0004 Bytes, ..., Flags = 0x02000004) -- CPU_ReadMem(4 bytes @ 0x40024140) - Data: 00 00 00 00  returns 0x04 (0001ms, 40641ms total)
T15FC 3673:271 JLINK_ReadMemEx(0x40024144, 0x0004 Bytes, ..., Flags = 0x02000004) -- CPU_ReadMem(4 bytes @ 0x40024144) - Data: 00 00 00 00  returns 0x04 (0001ms, 40642ms total)
T15FC 3673:272 JLINK_ReadMemEx(0x40024148, 0x0004 Bytes, ..., Flags = 0x02000004) -- CPU_ReadMem(4 bytes @ 0x40024148) - Data: 00 00 00 00  returns 0x04 (0001ms, 40643ms total)
T15FC 3673:273 JLINK_ReadMemEx(0x4002414C, 0x0004 Bytes, ..., Flags = 0x02000004) -- CPU_ReadMem(4 bytes @ 0x4002414C) - Data: 00 00 00 00  returns 0x04 (0001ms, 40644ms total)
T15FC 3673:274 JLINK_ReadMemEx(0x4002414C, 0x0004 Bytes, ..., Flags = 0x02000004) -- CPU_ReadMem(4 bytes @ 0x4002414C) - Data: 00 00 00 00  returns 0x04 (0001ms, 40645ms total)
T15FC 3673:275 JLINK_ReadMemEx(0x40024304, 0x0004 Bytes, ..., Flags = 0x02000004) -- CPU_ReadMem(4 bytes @ 0x40024304) - Data: 00 00 00 00  returns 0x04 (0001ms, 40646ms total)
T15FC 3673:276 JLINK_ReadMemEx(0x40024304, 0x0004 Bytes, ..., Flags = 0x02000004) -- CPU_ReadMem(4 bytes @ 0x40024304) - Data: 00 00 00 00  returns 0x04 (0002ms, 40648ms total)
T15FC 3673:278 JLINK_ReadMemEx(0x40024308, 0x0004 Bytes, ..., Flags = 0x02000004) -- CPU_ReadMem(4 bytes @ 0x40024308) - Data: 00 00 00 00  returns 0x04 (0001ms, 40649ms total)
T15FC 3673:279 JLINK_ReadMemEx(0x40024308, 0x0004 Bytes, ..., Flags = 0x02000004) -- CPU_ReadMem(4 bytes @ 0x40024308) - Data: 00 00 00 00  returns 0x04 (0001ms, 40650ms total)
T15FC 3673:280 JLINK_ReadMemEx(0x40024340, 0x0008 Bytes, ..., Flags = 0x02000004) -- CPU_ReadMem(8 bytes @ 0x40024340) - Data: 00 00 00 00 00 00 00 00  returns 0x08 (0001ms, 40651ms total)
T15FC 3673:281 JLINK_ReadMemEx(0x40024340, 0x0004 Bytes, ..., Flags = 0x02000004) -- CPU_ReadMem(4 bytes @ 0x40024340) - Data: 00 00 00 00  returns 0x04 (0001ms, 40652ms total)
T15FC 3673:282 JLINK_ReadMemEx(0x40024344, 0x0004 Bytes, ..., Flags = 0x02000004) -- CPU_ReadMem(4 bytes @ 0x40024344) - Data: 00 00 00 00  returns 0x04 (0001ms, 40653ms total)
T15FC 3673:283 JLINK_ReadMemEx(0x40024348, 0x0004 Bytes, ..., Flags = 0x02000004) -- CPU_ReadMem(4 bytes @ 0x40024348) - Data: 00 00 00 00  returns 0x04 (0002ms, 40655ms total)
T15FC 3673:285 JLINK_ReadMemEx(0x40024348, 0x0004 Bytes, ..., Flags = 0x02000004) -- CPU_ReadMem(4 bytes @ 0x40024348) - Data: 00 00 00 00  returns 0x04 (0001ms, 40656ms total)
T15FC 3673:286 JLINK_ReadMemEx(0x40024504, 0x0004 Bytes, ..., Flags = 0x02000004) -- CPU_ReadMem(4 bytes @ 0x40024504) - Data: 00 00 00 00  returns 0x04 (0001ms, 40657ms total)
T15FC 3673:287 JLINK_ReadMemEx(0x40024504, 0x0004 Bytes, ..., Flags = 0x02000004) -- CPU_ReadMem(4 bytes @ 0x40024504) - Data: 00 00 00 00  returns 0x04 (0001ms, 40658ms total)
T15FC 3673:288 JLINK_ReadMemEx(0x40024508, 0x0004 Bytes, ..., Flags = 0x02000004) -- CPU_ReadMem(4 bytes @ 0x40024508) - Data: 00 00 00 00  returns 0x04 (0001ms, 40659ms total)
T15FC 3673:289 JLINK_ReadMemEx(0x40024508, 0x0004 Bytes, ..., Flags = 0x02000004) -- CPU_ReadMem(4 bytes @ 0x40024508) - Data: 00 00 00 00  returns 0x04 (0001ms, 40660ms total)
T15FC 3673:290 JLINK_ReadMemEx(0x40024540, 0x000C Bytes, ..., Flags = 0x02000004) -- CPU_ReadMem(12 bytes @ 0x40024540) - Data: 00 00 00 00 00 00 00 00 00 00 00 00  returns 0x0C (0002ms, 40662ms total)
T15FC 3673:292 JLINK_ReadMemEx(0x40024540, 0x0004 Bytes, ..., Flags = 0x02000004) -- CPU_ReadMem(4 bytes @ 0x40024540) - Data: 00 00 00 00  returns 0x04 (0001ms, 40663ms total)
T15FC 3673:293 JLINK_ReadMemEx(0x40024544, 0x0004 Bytes, ..., Flags = 0x02000004) -- CPU_ReadMem(4 bytes @ 0x40024544) - Data: 00 00 00 00  returns 0x04 (0001ms, 40664ms total)
T15FC 3673:294 JLINK_ReadMemEx(0x40024548, 0x0004 Bytes, ..., Flags = 0x02000004) -- CPU_ReadMem(4 bytes @ 0x40024548) - Data: 00 00 00 00  returns 0x04 (0001ms, 40665ms total)
T15FC 3673:295 JLINK_ReadMemEx(0x4002454C, 0x0004 Bytes, ..., Flags = 0x02000004) -- CPU_ReadMem(4 bytes @ 0x4002454C) - Data: 00 00 00 00  returns 0x04 (0001ms, 40666ms total)
T15FC 3673:296 JLINK_ReadMemEx(0x4002454C, 0x0004 Bytes, ..., Flags = 0x02000004) -- CPU_ReadMem(4 bytes @ 0x4002454C) - Data: 00 00 00 00  returns 0x04 (0001ms, 40667ms total)
T15FC 3673:316 JLINK_ReadMemEx(0x40009140, 0x0014 Bytes, ..., Flags = 0x02000004) -- CPU_ReadMem(20 bytes @ 0x40009140) - Data: 00 00 00 00 00 00 00 00 00 00 00 00 00 00 00 00 ...  returns 0x14 (0048ms, 40715ms total)
T15FC 3673:364 JLINK_ReadMemEx(0x40009140, 0x0004 Bytes, ..., Flags = 0x02000004) -- CPU_ReadMem(4 bytes @ 0x40009140) - Data: 00 00 00 00  returns 0x04 (0003ms, 40718ms total)
T15FC 3673:367 JLINK_ReadMemEx(0x40009144, 0x0004 Bytes, ..., Flags = 0x02000004) -- CPU_ReadMem(4 bytes @ 0x40009144) - Data: 00 00 00 00  returns 0x04 (0004ms, 40722ms total)
T15FC 3673:371 JLINK_ReadMemEx(0x40009148, 0x0004 Bytes, ..., Flags = 0x02000004) -- CPU_ReadMem(4 bytes @ 0x40009148) - Data: 00 00 00 00  returns 0x04 (0003ms, 40725ms total)
T15FC 3673:374 JLINK_ReadMemEx(0x4000914C, 0x0004 Bytes, ..., Flags = 0x02000004) -- CPU_ReadMem(4 bytes @ 0x4000914C) - Data: 00 00 00 00  returns 0x04 (0004ms, 40729ms total)
T15FC 3673:378 JLINK_ReadMemEx(0x40009150, 0x0004 Bytes, ..., Flags = 0x02000004) -- CPU_ReadMem(4 bytes @ 0x40009150) - Data: 00 00 00 00  returns 0x04 (0004ms, 40733ms total)
T15FC 3673:382 JLINK_ReadMemEx(0x40009154, 0x0004 Bytes, ..., Flags = 0x02000004) -- CPU_ReadMem(4 bytes @ 0x40009154) - Data: 00 00 00 00  returns 0x04 (0003ms, 40736ms total)
T15FC 3673:385 JLINK_ReadMemEx(0x40009154, 0x0004 Bytes, ..., Flags = 0x02000004) -- CPU_ReadMem(4 bytes @ 0x40009154) - Data: 00 00 00 00  returns 0x04 (0004ms, 40740ms total)
T15FC 3673:389 JLINK_ReadMemEx(0x40009200, 0x0004 Bytes, ..., Flags = 0x02000004) -- CPU_ReadMem(4 bytes @ 0x40009200) - Data: 00 00 00 00  returns 0x04 (0003ms, 40743ms total)
T15FC 3673:392 JLINK_ReadMemEx(0x40009200, 0x0004 Bytes, ..., Flags = 0x02000004) -- CPU_ReadMem(4 bytes @ 0x40009200) - Data: 00 00 00 00  returns 0x04 (0003ms, 40746ms total)
T15FC 3673:395 JLINK_ReadMemEx(0x40009304, 0x0004 Bytes, ..., Flags = 0x02000004) -- CPU_ReadMem(4 bytes @ 0x40009304) - Data: 00 00 00 00  returns 0x04 (0002ms, 40748ms total)
T15FC 3673:397 JLINK_ReadMemEx(0x40009304, 0x0004 Bytes, ..., Flags = 0x02000004) -- CPU_ReadMem(4 bytes @ 0x40009304) - Data: 00 00 00 00  returns 0x04 (0003ms, 40751ms total)
T15FC 3673:400 JLINK_ReadMemEx(0x40009308, 0x0004 Bytes, ..., Flags = 0x02000004) -- CPU_ReadMem(4 bytes @ 0x40009308) - Data: 00 00 00 00  returns 0x04 (0002ms, 40753ms total)
T15FC 3673:402 JLINK_ReadMemEx(0x40009308, 0x0004 Bytes, ..., Flags = 0x02000004) -- CPU_ReadMem(4 bytes @ 0x40009308) - Data: 00 00 00 00  returns 0x04 (0002ms, 40755ms total)
T15FC 3673:404 JLINK_ReadMemEx(0x40009504, 0x0004 Bytes, ..., Flags = 0x02000004) -- CPU_ReadMem(4 bytes @ 0x40009504) - Data: 00 00 00 00  returns 0x04 (0003ms, 40758ms total)
T15FC 3673:407 JLINK_ReadMemEx(0x40009504, 0x0004 Bytes, ..., Flags = 0x02000004) -- CPU_ReadMem(4 bytes @ 0x40009504) - Data: 00 00 00 00  returns 0x04 (0002ms, 40760ms total)
T15FC 3673:409 JLINK_ReadMemEx(0x40009508, 0x0004 Bytes, ..., Flags = 0x02000004) -- CPU_ReadMem(4 bytes @ 0x40009508) - Data: 00 00 00 00  returns 0x04 (0002ms, 40762ms total)
T15FC 3673:411 JLINK_ReadMemEx(0x40009508, 0x0004 Bytes, ..., Flags = 0x02000004) -- CPU_ReadMem(4 bytes @ 0x40009508) - Data: 00 00 00 00  returns 0x04 (0006ms, 40768ms total)
T15FC 3673:417 JLINK_ReadMemEx(0x40009510, 0x0004 Bytes, ..., Flags = 0x02000004) -- CPU_ReadMem(4 bytes @ 0x40009510) - Data: 04 00 00 00  returns 0x04 (0003ms, 40771ms total)
T15FC 3673:421 JLINK_ReadMemEx(0x40009510, 0x0004 Bytes, ..., Flags = 0x02000004) -- CPU_ReadMem(4 bytes @ 0x40009510) - Data: 04 00 00 00  returns 0x04 (0002ms, 40773ms total)
T15FC 3673:423 JLINK_ReadMemEx(0x40009540, 0x0014 Bytes, ..., Flags = 0x02000004) -- CPU_ReadMem(20 bytes @ 0x40009540) - Data: 00 00 00 00 00 00 00 00 00 00 00 00 00 00 00 00 ...  returns 0x14 (0002ms, 40775ms total)
T15FC 3673:425 JLINK_ReadMemEx(0x40009540, 0x0004 Bytes, ..., Flags = 0x02000004) -- CPU_ReadMem(4 bytes @ 0x40009540) - Data: 00 00 00 00  returns 0x04 (0001ms, 40776ms total)
T15FC 3673:427 JLINK_ReadMemEx(0x40009544, 0x0004 Bytes, ..., Flags = 0x02000004) -- CPU_ReadMem(4 bytes @ 0x40009544) - Data: 00 00 00 00  returns 0x04 (0001ms, 40777ms total)
T15FC 3673:428 JLINK_ReadMemEx(0x40009548, 0x0004 Bytes, ..., Flags = 0x02000004) -- CPU_ReadMem(4 bytes @ 0x40009548) - Data: 00 00 00 00  returns 0x04 (0001ms, 40778ms total)
T15FC 3673:429 JLINK_ReadMemEx(0x4000954C, 0x0004 Bytes, ..., Flags = 0x02000004) -- CPU_ReadMem(4 bytes @ 0x4000954C) - Data: 00 00 00 00  returns 0x04 (0001ms, 40779ms total)
T15FC 3673:430 JLINK_ReadMemEx(0x40009550, 0x0004 Bytes, ..., Flags = 0x02000004) -- CPU_ReadMem(4 bytes @ 0x40009550) - Data: 00 00 00 00  returns 0x04 (0001ms, 40780ms total)
T15FC 3673:431 JLINK_ReadMemEx(0x40009554, 0x0004 Bytes, ..., Flags = 0x02000004) -- CPU_ReadMem(4 bytes @ 0x40009554) - Data: 00 00 00 00  returns 0x04 (0001ms, 40781ms total)
T15FC 3673:432 JLINK_ReadMemEx(0x40009554, 0x0004 Bytes, ..., Flags = 0x02000004) -- CPU_ReadMem(4 bytes @ 0x40009554) - Data: 00 00 00 00  returns 0x04 (0002ms, 40783ms total)
T15FC 3674:289 JLINK_ReadReg(R0)  returns 0x00000000 (0001ms, 40784ms total)
T15FC 3674:290 JLINK_ReadReg(R1)  returns 0x00000000 (0000ms, 40784ms total)
T15FC 3674:290 JLINK_ReadReg(R2)  returns 0x00000000 (0000ms, 40784ms total)
T15FC 3674:290 JLINK_ReadReg(R3)  returns 0x00000000 (0000ms, 40784ms total)
T15FC 3674:290 JLINK_ReadReg(R4)  returns 0x00000000 (0000ms, 40784ms total)
T15FC 3674:290 JLINK_ReadReg(R5)  returns 0x00000000 (0000ms, 40784ms total)
T15FC 3674:290 JLINK_ReadReg(R6)  returns 0x00000000 (0000ms, 40784ms total)
T15FC 3674:290 JLINK_ReadReg(R7)  returns 0x00000000 (0000ms, 40784ms total)
T15FC 3674:290 JLINK_ReadReg(R8)  returns 0x00000000 (0000ms, 40784ms total)
T15FC 3674:290 JLINK_ReadReg(R9)  returns 0x00000000 (0000ms, 40784ms total)
T15FC 3674:290 JLINK_ReadReg(R10)  returns 0x00000000 (0000ms, 40784ms total)
T15FC 3674:290 JLINK_ReadReg(R11)  returns 0x00000000 (0000ms, 40784ms total)
T15FC 3674:290 JLINK_ReadReg(R12)  returns 0x00000000 (0000ms, 40784ms total)
T15FC 3674:290 JLINK_ReadReg(R13 (SP))  returns 0x20003068 (0000ms, 40784ms total)
T15FC 3674:290 JLINK_ReadReg(R14)  returns 0xFFFFFFFF (0000ms, 40784ms total)
T15FC 3674:290 JLINK_ReadReg(R15 (PC))  returns 0x000002F8 (0000ms, 40784ms total)
T15FC 3674:290 JLINK_ReadReg(XPSR)  returns 0x01000000 (0000ms, 40784ms total)
T15FC 3674:290 JLINK_ReadReg(MSP)  returns 0x20003068 (0000ms, 40784ms total)
T15FC 3674:290 JLINK_ReadReg(PSP)  returns 0x00000000 (0000ms, 40784ms total)
T15FC 3674:290 JLINK_ReadReg(CFBP)  returns 0x00000000 (0000ms, 40784ms total)
T15FC 3674:290 JLINK_ReadReg(FPSCR)  returns 0x00000000 (0012ms, 40796ms total)
T15FC 3674:302 JLINK_ReadReg(FPS0)  returns 0x00000000 (0000ms, 40796ms total)
T15FC 3674:302 JLINK_ReadReg(FPS1)  returns 0x00000000 (0000ms, 40796ms total)
T15FC 3674:302 JLINK_ReadReg(FPS2)  returns 0x00000000 (0000ms, 40796ms total)
T15FC 3674:302 JLINK_ReadReg(FPS3)  returns 0x00000000 (0000ms, 40796ms total)
T15FC 3674:302 JLINK_ReadReg(FPS4)  returns 0x00000000 (0000ms, 40796ms total)
T15FC 3674:302 JLINK_ReadReg(FPS5)  returns 0x00000000 (0000ms, 40796ms total)
T15FC 3674:302 JLINK_ReadReg(FPS6)  returns 0x00000000 (0000ms, 40796ms total)
T15FC 3674:302 JLINK_ReadReg(FPS7)  returns 0x00000000 (0000ms, 40796ms total)
T15FC 3674:302 JLINK_ReadReg(FPS8)  returns 0x00000000 (0000ms, 40796ms total)
T15FC 3674:302 JLINK_ReadReg(FPS9)  returns 0x00000000 (0000ms, 40796ms total)
T15FC 3674:302 JLINK_ReadReg(FPS10)  returns 0x00000000 (0000ms, 40796ms total)
T15FC 3674:302 JLINK_ReadReg(FPS11)  returns 0x00000000 (0000ms, 40796ms total)
T15FC 3674:302 JLINK_ReadReg(FPS12)  returns 0x00000000 (0000ms, 40796ms total)
T15FC 3674:302 JLINK_ReadReg(FPS13)  returns 0x00000000 (0000ms, 40796ms total)
T15FC 3674:303 JLINK_ReadReg(FPS14)  returns 0x00000000 (0000ms, 40796ms total)
T15FC 3674:303 JLINK_ReadReg(FPS15)  returns 0x00000000 (0000ms, 40796ms total)
T15FC 3674:303 JLINK_ReadReg(FPS16)  returns 0x00000000 (0000ms, 40796ms total)
T15FC 3674:303 JLINK_ReadReg(FPS17)  returns 0x00000000 (0000ms, 40796ms total)
T15FC 3674:303 JLINK_ReadReg(FPS18)  returns 0x00000000 (0000ms, 40796ms total)
T15FC 3674:303 JLINK_ReadReg(FPS19)  returns 0x00000000 (0000ms, 40796ms total)
T15FC 3674:303 JLINK_ReadReg(FPS20)  returns 0x00000000 (0000ms, 40796ms total)
T15FC 3674:303 JLINK_ReadReg(FPS21)  returns 0x00000000 (0000ms, 40796ms total)
T15FC 3674:303 JLINK_ReadReg(FPS22)  returns 0x00000000 (0000ms, 40796ms total)
T15FC 3674:303 JLINK_ReadReg(FPS23)  returns 0x00000000 (0000ms, 40796ms total)
T15FC 3674:303 JLINK_ReadReg(FPS24)  returns 0x00000000 (0000ms, 40796ms total)
T15FC 3674:303 JLINK_ReadReg(FPS25)  returns 0x00000000 (0000ms, 40796ms total)
T15FC 3674:303 JLINK_ReadReg(FPS26)  returns 0x00000000 (0000ms, 40796ms total)
T15FC 3674:303 JLINK_ReadReg(FPS27)  returns 0x00000000 (0000ms, 40796ms total)
T15FC 3674:303 JLINK_ReadReg(FPS28)  returns 0x00000000 (0000ms, 40796ms total)
T15FC 3674:303 JLINK_ReadReg(FPS29)  returns 0x00000000 (0000ms, 40796ms total)
T15FC 3674:303 JLINK_ReadReg(FPS30)  returns 0x00000000 (0000ms, 40796ms total)
T15FC 3674:303 JLINK_ReadReg(FPS31)  returns 0x00000000 (0000ms, 40796ms total)
T15FC 3674:309 JLINK_ReadMemEx(0x00000000, 0x0004 Bytes, ..., Flags = 0x02000000) -- CPU_ReadMem(64 bytes @ 0x00000000) -- Updating C cache (64 bytes @ 0x00000000) -- Read from C cache (4 bytes @ 0x00000000) - Data: 68 30 00 20  returns 0x04 (0050ms, 40846ms total)
T1818 3674:448 JLINK_ReadMemEx(0x000002F8, 0x0002 Bytes, ..., Flags = 0x02000000) -- Read from C cache (2 bytes @ 0x000002F8) - Data: 06 48  returns 0x02 (0000ms, 40846ms total)
T1818 3674:448 JLINK_SetBPEx(Addr = 0x00001CC4, Type = 0xFFFFFFF2)  returns 0x00000001 (0000ms, 40846ms total)
T1818 3674:448 JLINK_SetBPEx(Addr = 0x0000180A, Type = 0xFFFFFFF2)  returns 0x00000002 (0000ms, 40846ms total)
T1818 3674:448 JLINK_ReadMemU32(0xE0001004, 0x0001 Items, ...) - Data: 00 00 00 00  returns 1 (0000ms, 40846ms total)
T1818 3674:448 JLINK_WriteU32(0xE0001004, 0x000003FF)  returns 0 (0000ms, 40846ms total)
T1818 3674:448 JLINK_WriteU32(0xE0001000, 0x0041061F)  returns 0 (0000ms, 40846ms total)
T1818 3674:448 JLINK_WriteU32(0xE0000E80, 0x0001000F)  returns 0 (0000ms, 40846ms total)
T1818 3674:448 JLINK_SWO_Control(JLINKARM_SWO_CMD_GET_NUM_BYTES, ...)  returns 0x00 (0026ms, 40872ms total)
T1818 3674:475 JLINK_Go() -- CPU_WriteMem(4 bytes @ 0xE0002000) -- CPU_WriteMem(4 bytes @ 0xE0002000) -- CPU_WriteMem(4 bytes @ 0xE0001000) -- CPU_ReadMem(4 bytes @ 0xE0001000) -- CPU_WriteMem(4 bytes @ 0xE0000E80) -- CPU_WriteMem(4 bytes @ 0xE0001008) -- CPU_WriteMem(4 bytes @ 0xE000100C) -- CPU_WriteMem(4 bytes @ 0xE0001010) -- CPU_WriteMem(4 bytes @ 0xE0001014) -- CPU_WriteMem(4 bytes @ 0xE0001018) -- CPU_WriteMem(4 bytes @ 0xE0002008) -- CPU_WriteMem(4 bytes @ 0xE000200C)
 -- CPU_WriteMem(4 bytes @ 0xE0002010) -- CPU_WriteMem(4 bytes @ 0xE0002014) -- CPU_WriteMem(4 bytes @ 0xE0002018) -- CPU_WriteMem(4 bytes @ 0xE000201C) -- CPU_WriteMem(4 bytes @ 0xE0001004) (0013ms, 40885ms total)
T1818 3674:489 JLINK_WriteU32(0xE0001000, 0x0001061F) -- CPU is running -- CPU_WriteMem(4 bytes @ 0xE0001000)  returns 0 (0001ms, 40886ms total)
T1818 3674:590 JLINK_SWO_Read(..., Offset = 0x00, NumBytes = 0x400000) - Data: 00 00 00 00 00 00 00 00 00 00 00 00 00 00 00 00 ...  NumBytesRead = 0x400000 (0000ms, 40886ms total)
T1818 3674:590 JLINK_SWO_Control(JLINKARM_SWO_CMD_FLUSH, ...)  returns 0x00 (0004ms, 40890ms total)
T1818 3674:611 JLINK_IsHalted()  returns TRUE (0008ms, 40898ms total)
T1818 3674:619 JLINK_Halt()  returns 0x00 (0000ms, 40890ms total)
T1818 3674:619 JLINK_IsHalted()  returns TRUE (0000ms, 40890ms total)
T1818 3674:619 JLINK_IsHalted()  returns TRUE (0000ms, 40890ms total)
T1818 3674:619 JLINK_IsHalted()  returns TRUE (0000ms, 40890ms total)
T1818 3674:619 JLINK_ReadReg(R15 (PC))  returns 0x00001CC4 (0000ms, 40890ms total)
T1818 3674:619 JLINK_ReadReg(XPSR)  returns 0x61000000 (0000ms, 40890ms total)
T1818 3674:619 JLINK_SWO_Read(..., Offset = 0x00, NumBytes = 0x400000) - Data: 00 00 00 00 00 00 00 00 00 00 00 00 00 00 00 00 ...  NumBytesRead = 0x400000 (0000ms, 40890ms total)
T1818 3674:619 JLINK_SWO_Control(JLINKARM_SWO_CMD_FLUSH, ...)  returns 0x00 (0001ms, 40891ms total)
T1818 3674:634 JLINK_ClrBPEx(BPHandle = 0x00000001)  returns 0x00 (0000ms, 40891ms total)
T1818 3674:634 JLINK_ClrBPEx(BPHandle = 0x00000002)  returns 0x00 (0000ms, 40891ms total)
T1818 3674:634 JLINK_ReadMemU32(0xE000ED30, 0x0001 Items, ...) -- CPU_ReadMem(4 bytes @ 0xE000ED30) - Data: 02 00 00 00  returns 1 (0002ms, 40893ms total)
T1818 3674:636 JLINK_ReadMemU32(0xE0001028, 0x0001 Items, ...) -- CPU_ReadMem(4 bytes @ 0xE0001028) - Data: 00 00 00 00  returns 1 (0001ms, 40894ms total)
T1818 3674:637 JLINK_ReadMemU32(0xE0001038, 0x0001 Items, ...) -- CPU_ReadMem(4 bytes @ 0xE0001038) - Data: 00 02 00 00  returns 1 (0001ms, 40895ms total)
T1818 3674:638 JLINK_ReadMemU32(0xE0001048, 0x0001 Items, ...) -- CPU_ReadMem(4 bytes @ 0xE0001048) - Data: 00 00 00 00  returns 1 (0001ms, 40896ms total)
T1818 3674:639 JLINK_ReadMemU32(0xE0001058, 0x0001 Items, ...) -- CPU_ReadMem(4 bytes @ 0xE0001058) - Data: 00 00 00 00  returns 1 (0001ms, 40897ms total)
T1818 3674:640 JLINK_ReadReg(R0)  returns 0x00001CC5 (0000ms, 40897ms total)
T1818 3674:640 JLINK_ReadReg(R1)  returns 0x20003068 (0000ms, 40897ms total)
T1818 3674:640 JLINK_ReadReg(R2)  returns 0x00000000 (0000ms, 40897ms total)
T1818 3674:640 JLINK_ReadReg(R3)  returns 0x00000D5D (0000ms, 40897ms total)
T1818 3674:640 JLINK_ReadReg(R4)  returns 0x00006308 (0000ms, 40897ms total)
T1818 3674:640 JLINK_ReadReg(R5)  returns 0x00006308 (0000ms, 40897ms total)
T1818 3674:640 JLINK_ReadReg(R6)  returns 0x00000000 (0000ms, 40897ms total)
T1818 3674:640 JLINK_ReadReg(R7)  returns 0x00000000 (0000ms, 40897ms total)
T1818 3674:640 JLINK_ReadReg(R8)  returns 0x00000000 (0000ms, 40897ms total)
T1818 3674:640 JLINK_ReadReg(R9)  returns 0x00000000 (0000ms, 40897ms total)
T1818 3674:640 JLINK_ReadReg(R10)  returns 0x00000000 (0000ms, 40897ms total)
T1818 3674:640 JLINK_ReadReg(R11)  returns 0x00000000 (0000ms, 40897ms total)
T1818 3674:640 JLINK_ReadReg(R12)  returns 0x00000000 (0000ms, 40897ms total)
T1818 3674:640 JLINK_ReadReg(R13 (SP))  returns 0x20003068 (0000ms, 40897ms total)
T1818 3674:640 JLINK_ReadReg(R14)  returns 0x00000449 (0000ms, 40897ms total)
T1818 3674:640 JLINK_ReadReg(R15 (PC))  returns 0x00001CC4 (0000ms, 40897ms total)
T1818 3674:640 JLINK_ReadReg(XPSR)  returns 0x61000000 (0000ms, 40897ms total)
T1818 3674:640 JLINK_ReadReg(MSP)  returns 0x20003068 (0000ms, 40897ms total)
T1818 3674:640 JLINK_ReadReg(PSP)  returns 0x00000000 (0000ms, 40897ms total)
T1818 3674:640 JLINK_ReadReg(CFBP)  returns 0x00000000 (0000ms, 40897ms total)
T1818 3674:640 JLINK_ReadReg(FPSCR)  returns 0x00000000 (0012ms, 40909ms total)
T1818 3674:653 JLINK_ReadReg(FPS0)  returns 0x00000000 (0000ms, 40909ms total)
T1818 3674:653 JLINK_ReadReg(FPS1)  returns 0x00000000 (0000ms, 40909ms total)
T1818 3674:653 JLINK_ReadReg(FPS2)  returns 0x00000000 (0000ms, 40909ms total)
T1818 3674:653 JLINK_ReadReg(FPS3)  returns 0x00000000 (0000ms, 40909ms total)
T1818 3674:653 JLINK_ReadReg(FPS4)  returns 0x00000000 (0000ms, 40909ms total)
T1818 3674:653 JLINK_ReadReg(FPS5)  returns 0x00000000 (0000ms, 40909ms total)
T1818 3674:653 JLINK_ReadReg(FPS6)  returns 0x00000000 (0000ms, 40909ms total)
T1818 3674:653 JLINK_ReadReg(FPS7)  returns 0x00000000 (0000ms, 40909ms total)
T1818 3674:653 JLINK_ReadReg(FPS8)  returns 0x00000000 (0000ms, 40909ms total)
T1818 3674:653 JLINK_ReadReg(FPS9)  returns 0x00000000 (0000ms, 40909ms total)
T1818 3674:653 JLINK_ReadReg(FPS10)  returns 0x00000000 (0000ms, 40909ms total)
T1818 3674:653 JLINK_ReadReg(FPS11)  returns 0x00000000 (0000ms, 40909ms total)
T1818 3674:653 JLINK_ReadReg(FPS12)  returns 0x00000000 (0000ms, 40909ms total)
T1818 3674:653 JLINK_ReadReg(FPS13)  returns 0x00000000 (0000ms, 40909ms total)
T1818 3674:653 JLINK_ReadReg(FPS14)  returns 0x00000000 (0000ms, 40909ms total)
T1818 3674:653 JLINK_ReadReg(FPS15)  returns 0x00000000 (0000ms, 40909ms total)
T1818 3674:653 JLINK_ReadReg(FPS16)  returns 0x00000000 (0000ms, 40909ms total)
T1818 3674:653 JLINK_ReadReg(FPS17)  returns 0x00000000 (0000ms, 40909ms total)
T1818 3674:653 JLINK_ReadReg(FPS18)  returns 0x00000000 (0000ms, 40909ms total)
T1818 3674:653 JLINK_ReadReg(FPS19)  returns 0x00000000 (0000ms, 40909ms total)
T1818 3674:653 JLINK_ReadReg(FPS20)  returns 0x00000000 (0000ms, 40909ms total)
T1818 3674:653 JLINK_ReadReg(FPS21)  returns 0x00000000 (0000ms, 40909ms total)
T1818 3674:653 JLINK_ReadReg(FPS22)  returns 0x00000000 (0000ms, 40909ms total)
T1818 3674:653 JLINK_ReadReg(FPS23)  returns 0x00000000 (0000ms, 40909ms total)
T1818 3674:653 JLINK_ReadReg(FPS24)  returns 0x00000000 (0000ms, 40909ms total)
T1818 3674:653 JLINK_ReadReg(FPS25)  returns 0x00000000 (0000ms, 40909ms total)
T1818 3674:653 JLINK_ReadReg(FPS26)  returns 0x00000000 (0000ms, 40909ms total)
T1818 3674:653 JLINK_ReadReg(FPS27)  returns 0x00000000 (0000ms, 40909ms total)
T1818 3674:653 JLINK_ReadReg(FPS28)  returns 0x00000000 (0000ms, 40909ms total)
T1818 3674:653 JLINK_ReadReg(FPS29)  returns 0x00000000 (0000ms, 40909ms total)
T1818 3674:653 JLINK_ReadReg(FPS30)  returns 0x00000000 (0000ms, 40909ms total)
T1818 3674:653 JLINK_ReadReg(FPS31)  returns 0x00000000 (0000ms, 40909ms total)
T15FC 3674:653 JLINK_ReadMemEx(0x20000000, 0x0006 Bytes, ..., Flags = 0x02000000) -- CPU_ReadMem(64 bytes @ 0x20000000) -- Updating C cache (64 bytes @ 0x20000000) -- Read from C cache (6 bytes @ 0x20000000) - Data: 0A 22 26 2F 31 41  returns 0x06 (0002ms, 40911ms total)
T15FC 3674:655 JLINK_ReadMemEx(0x00000000, 0x0004 Bytes, ..., Flags = 0x02000000) -- CPU_ReadMem(64 bytes @ 0x00000000) -- Updating C cache (64 bytes @ 0x00000000) -- Read from C cache (4 bytes @ 0x00000000) - Data: 68 30 00 20  returns 0x04 (0002ms, 40913ms total)
T15FC 3674:657 JLINK_ReadMemU32(0xE0001004, 0x0001 Items, ...) -- CPU_ReadMem(4 bytes @ 0xE0001004) - Data: DB 5A 00 00  returns 1 (0001ms, 40914ms total)
T15FC 3674:659 JLINK_ReadMemEx(0x200001BA, 0x0020 Bytes, ..., Flags = 0x02000000) -- CPU_ReadMem(128 bytes @ 0x20000180) -- Updating C cache (128 bytes @ 0x20000180) -- Read from C cache (32 bytes @ 0x200001BA) - Data: 00 00 00 00 00 00 00 00 00 00 00 00 00 00 00 00 ...  returns 0x20 (0002ms, 40916ms total)
T15FC 3674:667 JLINK_ReadMemEx(0x40009140, 0x0014 Bytes, ..., Flags = 0x02000004) -- CPU_ReadMem(20 bytes @ 0x40009140) - Data: 00 00 00 00 00 00 00 00 00 00 00 00 00 00 00 00 ...  returns 0x14 (0050ms, 40966ms total)
T15FC 3674:717 JLINK_ReadMemEx(0x40009140, 0x0004 Bytes, ..., Flags = 0x02000004) -- CPU_ReadMem(4 bytes @ 0x40009140) - Data: 00 00 00 00  returns 0x04 (0002ms, 40968ms total)
T15FC 3674:719 JLINK_ReadMemEx(0x40009144, 0x0004 Bytes, ..., Flags = 0x02000004) -- CPU_ReadMem(4 bytes @ 0x40009144) - Data: 00 00 00 00  returns 0x04 (0001ms, 40969ms total)
T15FC 3674:720 JLINK_ReadMemEx(0x40009148, 0x0004 Bytes, ..., Flags = 0x02000004) -- CPU_ReadMem(4 bytes @ 0x40009148) - Data: 00 00 00 00  returns 0x04 (0001ms, 40970ms total)
T15FC 3674:721 JLINK_ReadMemEx(0x4000914C, 0x0004 Bytes, ..., Flags = 0x02000004) -- CPU_ReadMem(4 bytes @ 0x4000914C) - Data: 00 00 00 00  returns 0x04 (0001ms, 40971ms total)
T15FC 3674:722 JLINK_ReadMemEx(0x40009150, 0x0004 Bytes, ..., Flags = 0x02000004) -- CPU_ReadMem(4 bytes @ 0x40009150) - Data: 00 00 00 00  returns 0x04 (0001ms, 40972ms total)
T15FC 3674:723 JLINK_ReadMemEx(0x40009154, 0x0004 Bytes, ..., Flags = 0x02000004) -- CPU_ReadMem(4 bytes @ 0x40009154) - Data: 00 00 00 00  returns 0x04 (0001ms, 40973ms total)
T15FC 3674:724 JLINK_ReadMemEx(0x40009154, 0x0004 Bytes, ..., Flags = 0x02000004) -- CPU_ReadMem(4 bytes @ 0x40009154) - Data: 00 00 00 00  returns 0x04 (0001ms, 40974ms total)
T15FC 3674:725 JLINK_ReadMemEx(0x40009200, 0x0004 Bytes, ..., Flags = 0x02000004) -- CPU_ReadMem(4 bytes @ 0x40009200) - Data: 00 00 00 00  returns 0x04 (0002ms, 40976ms total)
T15FC 3674:727 JLINK_ReadMemEx(0x40009200, 0x0004 Bytes, ..., Flags = 0x02000004) -- CPU_ReadMem(4 bytes @ 0x40009200) - Data: 00 00 00 00  returns 0x04 (0001ms, 40977ms total)
T15FC 3674:728 JLINK_ReadMemEx(0x40009304, 0x0004 Bytes, ..., Flags = 0x02000004) -- CPU_ReadMem(4 bytes @ 0x40009304) - Data: 00 00 00 00  returns 0x04 (0001ms, 40978ms total)
T15FC 3674:729 JLINK_ReadMemEx(0x40009304, 0x0004 Bytes, ..., Flags = 0x02000004) -- CPU_ReadMem(4 bytes @ 0x40009304) - Data: 00 00 00 00  returns 0x04 (0001ms, 40979ms total)
T15FC 3674:731 JLINK_ReadMemEx(0x40009308, 0x0004 Bytes, ..., Flags = 0x02000004) -- CPU_ReadMem(4 bytes @ 0x40009308) - Data: 00 00 00 00  returns 0x04 (0001ms, 40980ms total)
T15FC 3674:732 JLINK_ReadMemEx(0x40009308, 0x0004 Bytes, ..., Flags = 0x02000004) -- CPU_ReadMem(4 bytes @ 0x40009308) - Data: 00 00 00 00  returns 0x04 (0001ms, 40981ms total)
T15FC 3674:733 JLINK_ReadMemEx(0x40009504, 0x0004 Bytes, ..., Flags = 0x02000004) -- CPU_ReadMem(4 bytes @ 0x40009504) - Data: 00 00 00 00  returns 0x04 (0001ms, 40982ms total)
T15FC 3674:734 JLINK_ReadMemEx(0x40009504, 0x0004 Bytes, ..., Flags = 0x02000004) -- CPU_ReadMem(4 bytes @ 0x40009504) - Data: 00 00 00 00  returns 0x04 (0001ms, 40983ms total)
T15FC 3674:735 JLINK_ReadMemEx(0x40009508, 0x0004 Bytes, ..., Flags = 0x02000004) -- CPU_ReadMem(4 bytes @ 0x40009508) - Data: 00 00 00 00  returns 0x04 (0001ms, 40984ms total)
T15FC 3674:736 JLINK_ReadMemEx(0x40009508, 0x0004 Bytes, ..., Flags = 0x02000004) -- CPU_ReadMem(4 bytes @ 0x40009508) - Data: 00 00 00 00  returns 0x04 (0001ms, 40985ms total)
T15FC 3674:737 JLINK_ReadMemEx(0x40009510, 0x0004 Bytes, ..., Flags = 0x02000004) -- CPU_ReadMem(4 bytes @ 0x40009510) - Data: 04 00 00 00  returns 0x04 (0002ms, 40987ms total)
T15FC 3674:739 JLINK_ReadMemEx(0x40009510, 0x0004 Bytes, ..., Flags = 0x02000004) -- CPU_ReadMem(4 bytes @ 0x40009510) - Data: 04 00 00 00  returns 0x04 (0001ms, 40988ms total)
T15FC 3674:740 JLINK_ReadMemEx(0x40009540, 0x0014 Bytes, ..., Flags = 0x02000004) -- CPU_ReadMem(20 bytes @ 0x40009540) - Data: 00 00 00 00 00 00 00 00 00 00 00 00 00 00 00 00 ...  returns 0x14 (0001ms, 40989ms total)
T15FC 3674:741 JLINK_ReadMemEx(0x40009540, 0x0004 Bytes, ..., Flags = 0x02000004) -- CPU_ReadMem(4 bytes @ 0x40009540) - Data: 00 00 00 00  returns 0x04 (0001ms, 40990ms total)
T15FC 3674:742 JLINK_ReadMemEx(0x40009544, 0x0004 Bytes, ..., Flags = 0x02000004) -- CPU_ReadMem(4 bytes @ 0x40009544) - Data: 00 00 00 00  returns 0x04 (0001ms, 40991ms total)
T15FC 3674:743 JLINK_ReadMemEx(0x40009548, 0x0004 Bytes, ..., Flags = 0x02000004) -- CPU_ReadMem(4 bytes @ 0x40009548) - Data: 00 00 00 00  returns 0x04 (0002ms, 40993ms total)
T15FC 3674:745 JLINK_ReadMemEx(0x4000954C, 0x0004 Bytes, ..., Flags = 0x02000004) -- CPU_ReadMem(4 bytes @ 0x4000954C) - Data: 00 00 00 00  returns 0x04 (0001ms, 40994ms total)
T15FC 3674:746 JLINK_ReadMemEx(0x40009550, 0x0004 Bytes, ..., Flags = 0x02000004) -- CPU_ReadMem(4 bytes @ 0x40009550) - Data: 00 00 00 00  returns 0x04 (0001ms, 40995ms total)
T15FC 3674:747 JLINK_ReadMemEx(0x40009554, 0x0004 Bytes, ..., Flags = 0x02000004) -- CPU_ReadMem(4 bytes @ 0x40009554) - Data: 00 00 00 00  returns 0x04 (0001ms, 40996ms total)
T15FC 3674:748 JLINK_ReadMemEx(0x40009554, 0x0004 Bytes, ..., Flags = 0x02000004) -- CPU_ReadMem(4 bytes @ 0x40009554) - Data: 00 00 00 00  returns 0x04 (0001ms, 40997ms total)
T15FC 3674:749 JLINK_ReadMemEx(0x40024100, 0x0004 Bytes, ..., Flags = 0x02000004) -- CPU_ReadMem(4 bytes @ 0x40024100) - Data: 00 00 00 00  returns 0x04 (0001ms, 40998ms total)
T15FC 3674:750 JLINK_ReadMemEx(0x40024100, 0x0004 Bytes, ..., Flags = 0x02000004) -- CPU_ReadMem(4 bytes @ 0x40024100) - Data: 00 00 00 00  returns 0x04 (0002ms, 41000ms total)
T15FC 3674:752 JLINK_ReadMemEx(0x40024104, 0x0004 Bytes, ..., Flags = 0x02000004) -- CPU_ReadMem(4 bytes @ 0x40024104) - Data: 00 00 00 00  returns 0x04 (0001ms, 41001ms total)
T15FC 3674:753 JLINK_ReadMemEx(0x40024104, 0x0004 Bytes, ..., Flags = 0x02000004) -- CPU_ReadMem(4 bytes @ 0x40024104) - Data: 00 00 00 00  returns 0x04 (0001ms, 41002ms total)
T15FC 3674:754 JLINK_ReadMemEx(0x40024140, 0x000C Bytes, ..., Flags = 0x02000004) -- CPU_ReadMem(12 bytes @ 0x40024140) - Data: 00 00 00 00 00 00 00 00 00 00 00 00  returns 0x0C (0001ms, 41003ms total)
T15FC 3674:755 JLINK_ReadMemEx(0x40024140, 0x0004 Bytes, ..., Flags = 0x02000004) -- CPU_ReadMem(4 bytes @ 0x40024140) - Data: 00 00 00 00  returns 0x04 (0001ms, 41004ms total)
T15FC 3674:757 JLINK_ReadMemEx(0x40024144, 0x0004 Bytes, ..., Flags = 0x02000004) -- CPU_ReadMem(4 bytes @ 0x40024144) - Data: 00 00 00 00  returns 0x04 (0001ms, 41006ms total)
T15FC 3674:758 JLINK_ReadMemEx(0x40024148, 0x0004 Bytes, ..., Flags = 0x02000004) -- CPU_ReadMem(4 bytes @ 0x40024148) - Data: 00 00 00 00  returns 0x04 (0001ms, 41007ms total)
T15FC 3674:759 JLINK_ReadMemEx(0x4002414C, 0x0004 Bytes, ..., Flags = 0x02000004) -- CPU_ReadMem(4 bytes @ 0x4002414C) - Data: 00 00 00 00  returns 0x04 (0001ms, 41008ms total)
T15FC 3674:760 JLINK_ReadMemEx(0x4002414C, 0x0004 Bytes, ..., Flags = 0x02000004) -- CPU_ReadMem(4 bytes @ 0x4002414C) - Data: 00 00 00 00  returns 0x04 (0001ms, 41009ms total)
T15FC 3674:761 JLINK_ReadMemEx(0x40024304, 0x0004 Bytes, ..., Flags = 0x02000004) -- CPU_ReadMem(4 bytes @ 0x40024304) - Data: 00 00 00 00  returns 0x04 (0001ms, 41010ms total)
T15FC 3674:762 JLINK_ReadMemEx(0x40024304, 0x0004 Bytes, ..., Flags = 0x02000004) -- CPU_ReadMem(4 bytes @ 0x40024304) - Data: 00 00 00 00  returns 0x04 (0001ms, 41011ms total)
T15FC 3674:763 JLINK_ReadMemEx(0x40024308, 0x0004 Bytes, ..., Flags = 0x02000004) -- CPU_ReadMem(4 bytes @ 0x40024308) - Data: 00 00 00 00  returns 0x04 (0001ms, 41012ms total)
T15FC 3674:764 JLINK_ReadMemEx(0x40024308, 0x0004 Bytes, ..., Flags = 0x02000004) -- CPU_ReadMem(4 bytes @ 0x40024308) - Data: 00 00 00 00  returns 0x04 (0001ms, 41013ms total)
T15FC 3674:766 JLINK_ReadMemEx(0x40024340, 0x0008 Bytes, ..., Flags = 0x02000004) -- CPU_ReadMem(8 bytes @ 0x40024340) - Data: 00 00 00 00 00 00 00 00  returns 0x08 (0001ms, 41014ms total)
T15FC 3674:767 JLINK_ReadMemEx(0x40024340, 0x0004 Bytes, ..., Flags = 0x02000004) -- CPU_ReadMem(4 bytes @ 0x40024340) - Data: 00 00 00 00  returns 0x04 (0001ms, 41015ms total)
T15FC 3674:768 JLINK_ReadMemEx(0x40024344, 0x0004 Bytes, ..., Flags = 0x02000004) -- CPU_ReadMem(4 bytes @ 0x40024344) - Data: 00 00 00 00  returns 0x04 (0001ms, 41016ms total)
T15FC 3674:769 JLINK_ReadMemEx(0x40024348, 0x0004 Bytes, ..., Flags = 0x02000004) -- CPU_ReadMem(4 bytes @ 0x40024348) - Data: 00 00 00 00  returns 0x04 (0001ms, 41017ms total)
T15FC 3674:770 JLINK_ReadMemEx(0x40024348, 0x0004 Bytes, ..., Flags = 0x02000004) -- CPU_ReadMem(4 bytes @ 0x40024348) - Data: 00 00 00 00  returns 0x04 (0001ms, 41018ms total)
T15FC 3674:771 JLINK_ReadMemEx(0x40024504, 0x0004 Bytes, ..., Flags = 0x02000004) -- CPU_ReadMem(4 bytes @ 0x40024504) - Data: 00 00 00 00  returns 0x04 (0002ms, 41020ms total)
T15FC 3674:773 JLINK_ReadMemEx(0x40024504, 0x0004 Bytes, ..., Flags = 0x02000004) -- CPU_ReadMem(4 bytes @ 0x40024504) - Data: 00 00 00 00  returns 0x04 (0001ms, 41021ms total)
T15FC 3674:774 JLINK_ReadMemEx(0x40024508, 0x0004 Bytes, ..., Flags = 0x02000004) -- CPU_ReadMem(4 bytes @ 0x40024508) - Data: 00 00 00 00  returns 0x04 (0001ms, 41022ms total)
T15FC 3674:775 JLINK_ReadMemEx(0x40024508, 0x0004 Bytes, ..., Flags = 0x02000004) -- CPU_ReadMem(4 bytes @ 0x40024508) - Data: 00 00 00 00  returns 0x04 (0001ms, 41023ms total)
T15FC 3674:776 JLINK_ReadMemEx(0x40024540, 0x000C Bytes, ..., Flags = 0x02000004) -- CPU_ReadMem(12 bytes @ 0x40024540) - Data: 00 00 00 00 00 00 00 00 00 00 00 00  returns 0x0C (0001ms, 41024ms total)
T15FC 3674:777 JLINK_ReadMemEx(0x40024540, 0x0004 Bytes, ..., Flags = 0x02000004) -- CPU_ReadMem(4 bytes @ 0x40024540) - Data: 00 00 00 00  returns 0x04 (0001ms, 41025ms total)
T15FC 3674:778 JLINK_ReadMemEx(0x40024544, 0x0004 Bytes, ..., Flags = 0x02000004) -- CPU_ReadMem(4 bytes @ 0x40024544) - Data: 00 00 00 00  returns 0x04 (0001ms, 41026ms total)
T15FC 3674:779 JLINK_ReadMemEx(0x40024548, 0x0004 Bytes, ..., Flags = 0x02000004) -- CPU_ReadMem(4 bytes @ 0x40024548) - Data: 00 00 00 00  returns 0x04 (0001ms, 41027ms total)
T15FC 3674:780 JLINK_ReadMemEx(0x4002454C, 0x0004 Bytes, ..., Flags = 0x02000004) -- CPU_ReadMem(4 bytes @ 0x4002454C) - Data: 00 00 00 00  returns 0x04 (0001ms, 41028ms total)
T15FC 3674:782 JLINK_ReadMemEx(0x4002454C, 0x0004 Bytes, ..., Flags = 0x02000004) -- CPU_ReadMem(4 bytes @ 0x4002454C) - Data: 00 00 00 00  returns 0x04 (0058ms, 41086ms total)
T1818 3675:357 JLINK_ReadMemEx(0x00001CC4, 0x0002 Bytes, ..., Flags = 0x02000000) -- CPU_ReadMem(64 bytes @ 0x00001CC0) -- Updating C cache (64 bytes @ 0x00001CC0) -- Read from C cache (2 bytes @ 0x00001CC4) - Data: 1F B5  returns 0x02 (0002ms, 41088ms total)
T1818 3675:359 JLINK_SetBPEx(Addr = 0x0000180A, Type = 0xFFFFFFF2)  returns 0x00000003 (0000ms, 41088ms total)
T1818 3675:359 JLINK_ReadMemU32(0xE0001004, 0x0001 Items, ...) - Data: DB 5A 00 00  returns 1 (0000ms, 41088ms total)
T1818 3675:359 JLINK_WriteU32(0xE0001004, 0x00005BFF)  returns 0 (0000ms, 41088ms total)
T1818 3675:359 JLINK_WriteU32(0xE0001000, 0x0041061F)  returns 0 (0000ms, 41088ms total)
T1818 3675:359 JLINK_WriteU32(0xE0000E80, 0x0001000F)  returns 0 (0000ms, 41088ms total)
T1818 3675:359 JLINK_SWO_Control(JLINKARM_SWO_CMD_GET_NUM_BYTES, ...)  returns 0x00 (0001ms, 41089ms total)
T1818 3675:360 JLINK_Go() -- CPU_WriteMem(4 bytes @ 0xE0002000) -- CPU_WriteMem(4 bytes @ 0xE0001000) -- CPU_ReadMem(4 bytes @ 0xE0001000) -- CPU_WriteMem(4 bytes @ 0xE0000E80) -- CPU_WriteMem(4 bytes @ 0xE0002008) -- CPU_WriteMem(4 bytes @ 0xE000200C) -- CPU_WriteMem(4 bytes @ 0xE0001004) (0008ms, 41097ms total)
T1818 3675:368 JLINK_WriteU32(0xE0001000, 0x0001061F) -- CPU is running -- CPU_WriteMem(4 bytes @ 0xE0001000)  returns 0 (0001ms, 41098ms total)
T1818 3675:469 JLINK_SWO_Read(..., Offset = 0x00, NumBytes = 0x400000) - Data: 00 00 00 00 00 00 00 00 00 00 00 00 00 00 00 00 ...  NumBytesRead = 0x400000 (0000ms, 41098ms total)
T1818 3675:469 JLINK_SWO_Control(JLINKARM_SWO_CMD_FLUSH, ...)  returns 0x00 (0001ms, 41099ms total)
T1818 3675:493 JLINK_IsHalted()  returns FALSE (0004ms, 41103ms total)
T1818 3675:597 JLINK_SWO_Read(..., Offset = 0x00, NumBytes = 0x400000) - Data: 00 00 00 00 00 00 00 00 00 00 00 00 00 00 00 00 ...  NumBytesRead = 0x400000 (0000ms, 41099ms total)
T1818 3675:597 JLINK_SWO_Control(JLINKARM_SWO_CMD_FLUSH, ...)  returns 0x00 (0008ms, 41107ms total)
T1818 3675:655 JLINK_IsHalted()  returns FALSE (0036ms, 41143ms total)
T1818 3675:791 JLINK_SWO_Read(..., Offset = 0x00, NumBytes = 0x400000) - Data: 00 00 00 00 00 00 00 00 00 00 00 00 00 00 00 00 ...  NumBytesRead = 0x400000 (0000ms, 41107ms total)
T1818 3675:791 JLINK_SWO_Control(JLINKARM_SWO_CMD_FLUSH, ...)  returns 0x00 (0015ms, 41122ms total)
T1818 3675:824 JLINK_IsHalted()  returns FALSE (0001ms, 41123ms total)
T1818 3675:925 JLINK_SWO_Read(..., Offset = 0x00, NumBytes = 0x400000) - Data: 00 00 00 00 00 00 00 00 00 00 00 00 00 00 00 00 ...  NumBytesRead = 0x400000 (0000ms, 41122ms total)
T1818 3675:925 JLINK_SWO_Control(JLINKARM_SWO_CMD_FLUSH, ...)  returns 0x00 (0004ms, 41126ms total)
T1818 3675:943 JLINK_IsHalted()  returns FALSE (0002ms, 41128ms total)
